Title: * simulation de rc2
Date: Tue May 10 19:38:12  2022
Plotname: DC transfer characteristic
Flags: real
No. Variables: 5
No. Points: 306
Variables:
	0	v(v-sweep)	voltage
	1	v(n0)	voltage
	2	v(n1)	voltage
	3	v(n2)	voltage
	4	i(v1)	current
Values:
 0	0.000000000000000e+00
	0.000000000000000e+00
	0.000000000000000e+00
	0.000000000000000e+00
	0.000000000000000e+00

 1	1.000000000000000e-01
	1.000000000000000e-01
	1.000000000000000e-01
	1.000000000000000e-01
	0.000000000000000e+00

 2	2.000000000000000e-01
	2.000000000000000e-01
	2.000000000000000e-01
	2.000000000000000e-01
	0.000000000000000e+00

 3	3.000000000000000e-01
	3.000000000000000e-01
	3.000000000000000e-01
	3.000000000000000e-01
	0.000000000000000e+00

 4	4.000000000000000e-01
	4.000000000000000e-01
	4.000000000000000e-01
	4.000000000000000e-01
	0.000000000000000e+00

 5	5.000000000000000e-01
	5.000000000000000e-01
	5.000000000000000e-01
	5.000000000000000e-01
	0.000000000000000e+00

 6	6.000000000000000e-01
	6.000000000000000e-01
	6.000000000000000e-01
	6.000000000000000e-01
	0.000000000000000e+00

 7	7.000000000000000e-01
	7.000000000000000e-01
	7.000000000000000e-01
	7.000000000000000e-01
	0.000000000000000e+00

 8	7.999999999999999e-01
	7.999999999999999e-01
	7.999999999999999e-01
	7.999999999999999e-01
	0.000000000000000e+00

 9	8.999999999999999e-01
	8.999999999999999e-01
	9.000000000000000e-01
	9.000000000000000e-01
	1.084202172485504e-19

 10	9.999999999999999e-01
	9.999999999999999e-01
	9.999999999999998e-01
	9.999999999999998e-01
	0.000000000000000e+00

 11	1.100000000000000e+00
	1.100000000000000e+00
	1.100000000000000e+00
	1.100000000000000e+00
	0.000000000000000e+00

 12	1.200000000000000e+00
	1.200000000000000e+00
	1.200000000000000e+00
	1.200000000000000e+00
	0.000000000000000e+00

 13	1.300000000000000e+00
	1.300000000000000e+00
	1.300000000000000e+00
	1.300000000000000e+00
	2.168404344971009e-19

 14	1.400000000000000e+00
	1.400000000000000e+00
	1.400000000000000e+00
	1.400000000000000e+00
	0.000000000000000e+00

 15	1.500000000000000e+00
	1.500000000000000e+00
	1.500000000000000e+00
	1.500000000000000e+00
	0.000000000000000e+00

 16	1.600000000000000e+00
	1.600000000000000e+00
	1.600000000000000e+00
	1.600000000000000e+00
	0.000000000000000e+00

 17	1.700000000000000e+00
	1.700000000000000e+00
	1.700000000000000e+00
	1.700000000000000e+00
	0.000000000000000e+00

 18	1.800000000000000e+00
	1.800000000000000e+00
	1.800000000000001e+00
	1.800000000000001e+00
	2.168404344971009e-19

 19	1.900000000000001e+00
	1.900000000000001e+00
	1.900000000000001e+00
	1.900000000000001e+00
	0.000000000000000e+00

 20	2.000000000000000e+00
	2.000000000000000e+00
	2.000000000000000e+00
	2.000000000000000e+00
	0.000000000000000e+00

 21	2.100000000000001e+00
	2.100000000000001e+00
	2.100000000000001e+00
	2.100000000000001e+00
	0.000000000000000e+00

 22	2.200000000000001e+00
	2.200000000000001e+00
	2.200000000000001e+00
	2.200000000000001e+00
	0.000000000000000e+00

 23	2.300000000000001e+00
	2.300000000000001e+00
	2.300000000000001e+00
	2.300000000000001e+00
	0.000000000000000e+00

 24	2.400000000000001e+00
	2.400000000000001e+00
	2.400000000000001e+00
	2.400000000000001e+00
	0.000000000000000e+00

 25	2.500000000000001e+00
	2.500000000000001e+00
	2.500000000000001e+00
	2.500000000000001e+00
	0.000000000000000e+00

 26	2.600000000000001e+00
	2.600000000000001e+00
	2.600000000000001e+00
	2.600000000000001e+00
	0.000000000000000e+00

 27	2.700000000000001e+00
	2.700000000000001e+00
	2.700000000000001e+00
	2.700000000000001e+00
	0.000000000000000e+00

 28	2.800000000000001e+00
	2.800000000000001e+00
	2.800000000000001e+00
	2.800000000000001e+00
	0.000000000000000e+00

 29	2.900000000000001e+00
	2.900000000000001e+00
	2.900000000000001e+00
	2.900000000000001e+00
	0.000000000000000e+00

 30	3.000000000000001e+00
	3.000000000000001e+00
	3.000000000000001e+00
	3.000000000000001e+00
	0.000000000000000e+00

 31	3.100000000000001e+00
	3.100000000000001e+00
	3.100000000000001e+00
	3.100000000000001e+00
	0.000000000000000e+00

 32	3.200000000000002e+00
	3.200000000000002e+00
	3.200000000000002e+00
	3.200000000000002e+00
	0.000000000000000e+00

 33	3.300000000000002e+00
	3.300000000000002e+00
	3.300000000000002e+00
	3.300000000000002e+00
	0.000000000000000e+00

 34	3.400000000000002e+00
	3.400000000000002e+00
	3.400000000000002e+00
	3.400000000000002e+00
	0.000000000000000e+00

 35	3.500000000000002e+00
	3.500000000000002e+00
	3.500000000000002e+00
	3.500000000000002e+00
	0.000000000000000e+00

 36	3.600000000000002e+00
	3.600000000000002e+00
	3.600000000000002e+00
	3.600000000000002e+00
	0.000000000000000e+00

 37	3.700000000000002e+00
	3.700000000000002e+00
	3.700000000000002e+00
	3.700000000000002e+00
	0.000000000000000e+00

 38	3.800000000000002e+00
	3.800000000000002e+00
	3.800000000000002e+00
	3.800000000000002e+00
	0.000000000000000e+00

 39	3.900000000000002e+00
	3.900000000000002e+00
	3.900000000000003e+00
	3.900000000000003e+00
	4.336808689942018e-19

 40	4.000000000000002e+00
	4.000000000000002e+00
	4.000000000000002e+00
	4.000000000000002e+00
	0.000000000000000e+00

 41	4.100000000000001e+00
	4.100000000000001e+00
	4.100000000000001e+00
	4.100000000000001e+00
	0.000000000000000e+00

 42	4.200000000000001e+00
	4.200000000000001e+00
	4.200000000000001e+00
	4.200000000000001e+00
	0.000000000000000e+00

 43	4.300000000000001e+00
	4.300000000000001e+00
	4.300000000000001e+00
	4.300000000000001e+00
	0.000000000000000e+00

 44	4.400000000000000e+00
	4.400000000000000e+00
	4.400000000000000e+00
	4.400000000000000e+00
	0.000000000000000e+00

 45	4.500000000000000e+00
	4.500000000000000e+00
	4.500000000000001e+00
	4.500000000000001e+00
	8.673617379884035e-19

 46	4.600000000000000e+00
	4.600000000000000e+00
	4.600000000000000e+00
	4.600000000000000e+00
	0.000000000000000e+00

 47	4.699999999999999e+00
	4.699999999999999e+00
	4.699999999999999e+00
	4.699999999999999e+00
	0.000000000000000e+00

 48	4.799999999999999e+00
	4.799999999999999e+00
	4.799999999999999e+00
	4.799999999999999e+00
	0.000000000000000e+00

 49	4.899999999999999e+00
	4.899999999999999e+00
	4.899999999999999e+00
	4.899999999999999e+00
	0.000000000000000e+00

 50	4.999999999999998e+00
	4.999999999999998e+00
	4.999999999999998e+00
	4.999999999999998e+00
	0.000000000000000e+00

 51	0.000000000000000e+00
	0.000000000000000e+00
	-1.000000000000000e+00
	-2.000000000000000e+00
	-1.000000000000000e-03

 52	1.000000000000000e-01
	1.000000000000000e-01
	-9.000000000000000e-01
	-1.900000000000000e+00
	-1.000000000000000e-03

 53	2.000000000000000e-01
	2.000000000000000e-01
	-8.000000000000000e-01
	-1.800000000000000e+00
	-1.000000000000000e-03

 54	3.000000000000000e-01
	3.000000000000000e-01
	-7.000000000000000e-01
	-1.700000000000000e+00
	-1.000000000000000e-03

 55	4.000000000000000e-01
	4.000000000000000e-01
	-6.000000000000001e-01
	-1.600000000000000e+00
	-1.000000000000000e-03

 56	5.000000000000000e-01
	5.000000000000000e-01
	-5.000000000000000e-01
	-1.500000000000000e+00
	-1.000000000000000e-03

 57	6.000000000000000e-01
	6.000000000000000e-01
	-4.000000000000001e-01
	-1.400000000000000e+00
	-1.000000000000000e-03

 58	7.000000000000000e-01
	7.000000000000000e-01
	-3.000000000000000e-01
	-1.300000000000000e+00
	-1.000000000000000e-03

 59	7.999999999999999e-01
	7.999999999999999e-01
	-2.000000000000001e-01
	-1.200000000000000e+00
	-1.000000000000000e-03

 60	8.999999999999999e-01
	8.999999999999999e-01
	-1.000000000000000e-01
	-1.100000000000000e+00
	-1.000000000000000e-03

 61	9.999999999999999e-01
	9.999999999999999e-01
	-2.168404344971009e-16
	-1.000000000000000e+00
	-1.000000000000000e-03

 62	1.100000000000000e+00
	1.100000000000000e+00
	9.999999999999983e-02
	-9.000000000000001e-01
	-1.000000000000000e-03

 63	1.200000000000000e+00
	1.200000000000000e+00
	1.999999999999999e-01
	-8.000000000000002e-01
	-1.000000000000000e-03

 64	1.300000000000000e+00
	1.300000000000000e+00
	3.000000000000002e-01
	-6.999999999999998e-01
	-1.000000000000000e-03

 65	1.400000000000000e+00
	1.400000000000000e+00
	4.000000000000002e-01
	-5.999999999999999e-01
	-1.000000000000000e-03

 66	1.500000000000000e+00
	1.500000000000000e+00
	5.000000000000002e-01
	-4.999999999999998e-01
	-1.000000000000000e-03

 67	1.600000000000000e+00
	1.600000000000000e+00
	6.000000000000003e-01
	-3.999999999999997e-01
	-1.000000000000000e-03

 68	1.700000000000000e+00
	1.700000000000000e+00
	7.000000000000003e-01
	-2.999999999999997e-01
	-1.000000000000000e-03

 69	1.800000000000000e+00
	1.800000000000000e+00
	8.000000000000006e-01
	-1.999999999999994e-01
	-1.000000000000000e-03

 70	1.900000000000001e+00
	1.900000000000001e+00
	9.000000000000006e-01
	-9.999999999999942e-02
	-1.000000000000000e-03

 71	2.000000000000000e+00
	2.000000000000000e+00
	1.000000000000000e+00
	4.440892098500626e-16
	-1.000000000000000e-03

 72	2.100000000000001e+00
	2.100000000000001e+00
	1.100000000000001e+00
	1.000000000000008e-01
	-1.000000000000000e-03

 73	2.200000000000001e+00
	2.200000000000001e+00
	1.200000000000001e+00
	2.000000000000006e-01
	-1.000000000000000e-03

 74	2.300000000000001e+00
	2.300000000000001e+00
	1.300000000000001e+00
	3.000000000000007e-01
	-1.000000000000000e-03

 75	2.400000000000001e+00
	2.400000000000001e+00
	1.400000000000001e+00
	4.000000000000006e-01
	-1.000000000000000e-03

 76	2.500000000000001e+00
	2.500000000000001e+00
	1.500000000000001e+00
	5.000000000000009e-01
	-1.000000000000000e-03

 77	2.600000000000001e+00
	2.600000000000001e+00
	1.600000000000001e+00
	6.000000000000012e-01
	-1.000000000000000e-03

 78	2.700000000000001e+00
	2.700000000000001e+00
	1.700000000000001e+00
	7.000000000000011e-01
	-9.999999999999998e-04

 79	2.800000000000001e+00
	2.800000000000001e+00
	1.800000000000001e+00
	8.000000000000012e-01
	-1.000000000000000e-03

 80	2.900000000000001e+00
	2.900000000000001e+00
	1.900000000000001e+00
	9.000000000000010e-01
	-1.000000000000000e-03

 81	3.000000000000001e+00
	3.000000000000001e+00
	2.000000000000001e+00
	1.000000000000001e+00
	-1.000000000000000e-03

 82	3.100000000000001e+00
	3.100000000000001e+00
	2.100000000000001e+00
	1.100000000000001e+00
	-1.000000000000000e-03

 83	3.200000000000002e+00
	3.200000000000002e+00
	2.200000000000002e+00
	1.200000000000002e+00
	-1.000000000000000e-03

 84	3.300000000000002e+00
	3.300000000000002e+00
	2.300000000000002e+00
	1.300000000000002e+00
	-1.000000000000000e-03

 85	3.400000000000002e+00
	3.400000000000002e+00
	2.400000000000002e+00
	1.400000000000002e+00
	-1.000000000000000e-03

 86	3.500000000000002e+00
	3.500000000000002e+00
	2.500000000000002e+00
	1.500000000000002e+00
	-1.000000000000000e-03

 87	3.600000000000002e+00
	3.600000000000002e+00
	2.600000000000002e+00
	1.600000000000002e+00
	-1.000000000000000e-03

 88	3.700000000000002e+00
	3.700000000000002e+00
	2.700000000000002e+00
	1.700000000000002e+00
	-1.000000000000000e-03

 89	3.800000000000002e+00
	3.800000000000002e+00
	2.800000000000002e+00
	1.800000000000002e+00
	-1.000000000000000e-03

 90	3.900000000000002e+00
	3.900000000000002e+00
	2.900000000000003e+00
	1.900000000000003e+00
	-9.999999999999996e-04

 91	4.000000000000002e+00
	4.000000000000002e+00
	3.000000000000002e+00
	2.000000000000002e+00
	-1.000000000000000e-03

 92	4.100000000000001e+00
	4.100000000000001e+00
	3.100000000000001e+00
	2.100000000000001e+00
	-1.000000000000000e-03

 93	4.200000000000001e+00
	4.200000000000001e+00
	3.200000000000002e+00
	2.200000000000002e+00
	-1.000000000000000e-03

 94	4.300000000000001e+00
	4.300000000000001e+00
	3.300000000000001e+00
	2.300000000000001e+00
	-1.000000000000000e-03

 95	4.400000000000000e+00
	4.400000000000000e+00
	3.400000000000000e+00
	2.400000000000000e+00
	-1.000000000000000e-03

 96	4.500000000000000e+00
	4.500000000000000e+00
	3.500000000000000e+00
	2.500000000000000e+00
	-1.000000000000000e-03

 97	4.600000000000000e+00
	4.600000000000000e+00
	3.600000000000000e+00
	2.600000000000000e+00
	-9.999999999999996e-04

 98	4.699999999999999e+00
	4.699999999999999e+00
	3.699999999999999e+00
	2.699999999999999e+00
	-1.000000000000000e-03

 99	4.799999999999999e+00
	4.799999999999999e+00
	3.799999999999998e+00
	2.799999999999998e+00
	-1.000000000000000e-03

 100	4.899999999999999e+00
	4.899999999999999e+00
	3.899999999999999e+00
	2.899999999999999e+00
	-1.000000000000000e-03

 101	4.999999999999998e+00
	4.999999999999998e+00
	3.999999999999998e+00
	2.999999999999998e+00
	-1.000000000000000e-03

 102	0.000000000000000e+00
	0.000000000000000e+00
	-2.000000000000000e+00
	-4.000000000000000e+00
	-2.000000000000000e-03

 103	1.000000000000000e-01
	1.000000000000000e-01
	-1.900000000000000e+00
	-3.900000000000000e+00
	-2.000000000000000e-03

 104	2.000000000000000e-01
	2.000000000000000e-01
	-1.800000000000000e+00
	-3.800000000000000e+00
	-2.000000000000000e-03

 105	3.000000000000000e-01
	3.000000000000000e-01
	-1.700000000000000e+00
	-3.700000000000000e+00
	-2.000000000000000e-03

 106	4.000000000000000e-01
	4.000000000000000e-01
	-1.600000000000000e+00
	-3.600000000000000e+00
	-2.000000000000000e-03

 107	5.000000000000000e-01
	5.000000000000000e-01
	-1.500000000000000e+00
	-3.500000000000000e+00
	-2.000000000000000e-03

 108	6.000000000000000e-01
	6.000000000000000e-01
	-1.400000000000000e+00
	-3.400000000000000e+00
	-2.000000000000000e-03

 109	7.000000000000000e-01
	7.000000000000000e-01
	-1.300000000000000e+00
	-3.300000000000000e+00
	-2.000000000000000e-03

 110	7.999999999999999e-01
	7.999999999999999e-01
	-1.200000000000000e+00
	-3.200000000000000e+00
	-2.000000000000000e-03

 111	8.999999999999999e-01
	8.999999999999999e-01
	-1.100000000000000e+00
	-3.100000000000000e+00
	-2.000000000000000e-03

 112	9.999999999999999e-01
	9.999999999999999e-01
	-1.000000000000000e+00
	-3.000000000000000e+00
	-2.000000000000000e-03

 113	1.100000000000000e+00
	1.100000000000000e+00
	-9.000000000000002e-01
	-2.900000000000000e+00
	-2.000000000000000e-03

 114	1.200000000000000e+00
	1.200000000000000e+00
	-8.000000000000002e-01
	-2.800000000000000e+00
	-2.000000000000000e-03

 115	1.300000000000000e+00
	1.300000000000000e+00
	-6.999999999999998e-01
	-2.700000000000000e+00
	-2.000000000000000e-03

 116	1.400000000000000e+00
	1.400000000000000e+00
	-5.999999999999999e-01
	-2.600000000000000e+00
	-2.000000000000000e-03

 117	1.500000000000000e+00
	1.500000000000000e+00
	-4.999999999999998e-01
	-2.500000000000000e+00
	-2.000000000000000e-03

 118	1.600000000000000e+00
	1.600000000000000e+00
	-3.999999999999997e-01
	-2.400000000000000e+00
	-2.000000000000000e-03

 119	1.700000000000000e+00
	1.700000000000000e+00
	-2.999999999999997e-01
	-2.300000000000000e+00
	-2.000000000000000e-03

 120	1.800000000000000e+00
	1.800000000000000e+00
	-1.999999999999994e-01
	-2.199999999999999e+00
	-2.000000000000000e-03

 121	1.900000000000001e+00
	1.900000000000001e+00
	-9.999999999999939e-02
	-2.099999999999999e+00
	-2.000000000000000e-03

 122	2.000000000000000e+00
	2.000000000000000e+00
	4.336808689942018e-16
	-2.000000000000000e+00
	-2.000000000000000e-03

 123	2.100000000000001e+00
	2.100000000000001e+00
	1.000000000000007e-01
	-1.899999999999999e+00
	-2.000000000000000e-03

 124	2.200000000000001e+00
	2.200000000000001e+00
	2.000000000000005e-01
	-1.799999999999999e+00
	-2.000000000000000e-03

 125	2.300000000000001e+00
	2.300000000000001e+00
	3.000000000000008e-01
	-1.699999999999999e+00
	-2.000000000000000e-03

 126	2.400000000000001e+00
	2.400000000000001e+00
	4.000000000000006e-01
	-1.599999999999999e+00
	-2.000000000000000e-03

 127	2.500000000000001e+00
	2.500000000000001e+00
	5.000000000000009e-01
	-1.499999999999999e+00
	-2.000000000000000e-03

 128	2.600000000000001e+00
	2.600000000000001e+00
	6.000000000000011e-01
	-1.399999999999999e+00
	-2.000000000000000e-03

 129	2.700000000000001e+00
	2.700000000000001e+00
	7.000000000000010e-01
	-1.299999999999999e+00
	-2.000000000000000e-03

 130	2.800000000000001e+00
	2.800000000000001e+00
	8.000000000000013e-01
	-1.199999999999999e+00
	-2.000000000000000e-03

 131	2.900000000000001e+00
	2.900000000000001e+00
	9.000000000000010e-01
	-1.099999999999999e+00
	-2.000000000000000e-03

 132	3.000000000000001e+00
	3.000000000000001e+00
	1.000000000000001e+00
	-9.999999999999987e-01
	-2.000000000000000e-03

 133	3.100000000000001e+00
	3.100000000000001e+00
	1.100000000000002e+00
	-8.999999999999984e-01
	-2.000000000000000e-03

 134	3.200000000000002e+00
	3.200000000000002e+00
	1.200000000000002e+00
	-7.999999999999985e-01
	-2.000000000000000e-03

 135	3.300000000000002e+00
	3.300000000000002e+00
	1.300000000000002e+00
	-6.999999999999984e-01
	-2.000000000000000e-03

 136	3.400000000000002e+00
	3.400000000000002e+00
	1.400000000000001e+00
	-5.999999999999985e-01
	-2.000000000000000e-03

 137	3.500000000000002e+00
	3.500000000000002e+00
	1.500000000000002e+00
	-4.999999999999982e-01
	-2.000000000000000e-03

 138	3.600000000000002e+00
	3.600000000000002e+00
	1.600000000000002e+00
	-3.999999999999979e-01
	-2.000000000000000e-03

 139	3.700000000000002e+00
	3.700000000000002e+00
	1.700000000000002e+00
	-2.999999999999980e-01
	-2.000000000000000e-03

 140	3.800000000000002e+00
	3.800000000000002e+00
	1.800000000000002e+00
	-1.999999999999980e-01
	-2.000000000000000e-03

 141	3.900000000000002e+00
	3.900000000000002e+00
	1.900000000000002e+00
	-9.999999999999765e-02
	-2.000000000000000e-03

 142	4.000000000000002e+00
	4.000000000000002e+00
	2.000000000000002e+00
	1.776356839400250e-15
	-2.000000000000000e-03

 143	4.100000000000001e+00
	4.100000000000001e+00
	2.100000000000001e+00
	1.000000000000010e-01
	-2.000000000000000e-03

 144	4.200000000000001e+00
	4.200000000000001e+00
	2.200000000000002e+00
	2.000000000000015e-01
	-2.000000000000000e-03

 145	4.300000000000001e+00
	4.300000000000001e+00
	2.300000000000001e+00
	3.000000000000007e-01
	-2.000000000000000e-03

 146	4.400000000000000e+00
	4.400000000000000e+00
	2.400000000000000e+00
	4.000000000000004e-01
	-2.000000000000000e-03

 147	4.500000000000000e+00
	4.500000000000000e+00
	2.500000000000000e+00
	5.000000000000004e-01
	-2.000000000000000e-03

 148	4.600000000000000e+00
	4.600000000000000e+00
	2.600000000000000e+00
	6.000000000000001e-01
	-2.000000000000000e-03

 149	4.699999999999999e+00
	4.699999999999999e+00
	2.699999999999999e+00
	6.999999999999993e-01
	-2.000000000000000e-03

 150	4.799999999999999e+00
	4.799999999999999e+00
	2.799999999999998e+00
	7.999999999999985e-01
	-2.000000000000000e-03

 151	4.899999999999999e+00
	4.899999999999999e+00
	2.899999999999999e+00
	8.999999999999990e-01
	-2.000000000000000e-03

 152	4.999999999999998e+00
	4.999999999999998e+00
	2.999999999999998e+00
	9.999999999999982e-01
	-2.000000000000000e-03

 153	0.000000000000000e+00
	0.000000000000000e+00
	-3.000000000000000e+00
	-6.000000000000000e+00
	-3.000000000000000e-03

 154	1.000000000000000e-01
	1.000000000000000e-01
	-2.900000000000000e+00
	-5.900000000000000e+00
	-3.000000000000000e-03

 155	2.000000000000000e-01
	2.000000000000000e-01
	-2.800000000000000e+00
	-5.800000000000000e+00
	-3.000000000000000e-03

 156	3.000000000000000e-01
	3.000000000000000e-01
	-2.700000000000000e+00
	-5.700000000000000e+00
	-3.000000000000000e-03

 157	4.000000000000000e-01
	4.000000000000000e-01
	-2.600000000000000e+00
	-5.600000000000000e+00
	-3.000000000000000e-03

 158	5.000000000000000e-01
	5.000000000000000e-01
	-2.500000000000000e+00
	-5.500000000000000e+00
	-3.000000000000000e-03

 159	6.000000000000000e-01
	6.000000000000000e-01
	-2.400000000000000e+00
	-5.400000000000000e+00
	-3.000000000000000e-03

 160	7.000000000000000e-01
	7.000000000000000e-01
	-2.300000000000000e+00
	-5.300000000000000e+00
	-3.000000000000000e-03

 161	7.999999999999999e-01
	7.999999999999999e-01
	-2.200000000000000e+00
	-5.200000000000000e+00
	-3.000000000000000e-03

 162	8.999999999999999e-01
	8.999999999999999e-01
	-2.100000000000000e+00
	-5.100000000000000e+00
	-3.000000000000000e-03

 163	9.999999999999999e-01
	9.999999999999999e-01
	-2.000000000000000e+00
